T0808 2073:807 SEGGER J-Link V4.84c Log File (0001ms, 4824ms total)
T0808 2073:807 DLL Compiled: Apr 16 2014 18:53:07 (0001ms, 4824ms total)
T0808 2073:807 Logging started @ 2021-01-22 20:44 (0001ms, 4824ms total)
T0808 2073:808 JLINK_SetWarnOutHandler(...) (0000ms, 4824ms total)
T0808 2073:808 JLINK_OpenEx(...)
Firmware: J-Link ARM-OB STM32 compiled Aug 22 2012 19:52:04
Hardware: V7.00
S/N: 20090928
Feature(s): RDI,FlashDL,FlashBP,JFlash,GDBFullDevice "UNSPECIFIED" selected (0 KB flash, 0 KB RAM).  returns O.K. (0259ms, 5083ms total)
T0808 2074:067 JLINK_GetEmuCaps()  returns 0x88EA5833 (0000ms, 5083ms total)
T0808 2074:067 JLINK_TIF_GetAvailable(...) (0000ms, 5083ms total)
T0808 2074:067 JLINK_SetErrorOutHandler(...) (0000ms, 5083ms total)
T0808 2074:067 JLINK_ExecCommand("ProjectFile = "C:\Users\42517\Desktop\无人机\匿名拓空者P2资料包-20201221\8：飞控源码工程\ANO_PioneerPro-088\JLinkSettings.ini"", ...)Device "UNSPECIFIED" selected (0 KB flash, 0 KB RAM).  returns 0x00 (0001ms, 5084ms total)
T0808 2074:068 JLINK_ExecCommand("Device = STM32F407VGTx", ...)Device "UNSPECIFIED" selected (0 KB flash, 0 KB RAM).  returns 0x00 (0000ms, 5084ms total)
T0808 2074:068 JLINK_ExecCommand("DisableConnectionTimeout", ...)  returns 0x01 (0000ms, 5084ms total)
T0808 2074:068 JLINK_GetHardwareVersion()  returns 0x11170 (0000ms, 5084ms total)
T0808 2074:068 JLINK_GetDLLVersion()  returns 48403 (0000ms, 5084ms total)
T0808 2074:068 JLINK_GetFirmwareString(...) (0000ms, 5084ms total)
T0808 2074:068 JLINK_GetDLLVersion()  returns 48403 (0000ms, 5084ms total)
T0808 2074:068 JLINK_GetCompileDateTime() (0000ms, 5084ms total)
T0808 2074:068 JLINK_GetFirmwareString(...) (0000ms, 5084ms total)
T0808 2074:068 JLINK_GetHardwareVersion()  returns 0x11170 (0000ms, 5084ms total)
T0808 2074:068 JLINK_TIF_Select(JLINKARM_TIF_SWD)  returns 0x00 (0000ms, 5084ms total)
T0808 2074:068 JLINK_SetSpeed(5000) (0000ms, 5084ms total)
T0808 2074:068 JLINK_GetId() >0x108 TIF>Found SWD-DP with ID 0x2BA01477 >0x0D TIF> >0x21 TIF> >0x0D TIF> >0x28 TIF> >0x0D TIF> >0x28 TIF> >0x0D TIF> >0x21 TIF> >0x0D TIF> >0x28 TIF> >0x0D TIF> >0x21 TIF> >0x0D TIF> >0x21 TIF> >0x0D TIF> >0x21 TIF> >0x0D TIF> >0x21 TIF> >0x0D TIF> >0x28 TIF> >0x0D TIF> >0x28 TIF> >0x0D TIF> >0x21 TIF> >0x0D TIF> >0x28 TIF> >0x0D TIF> >0x28 TIF> >0x0D TIF> >0x28 TIF> >0x0D TIF> >0x21 TIF> >0x0D TIF> >0x21 TIF> >0x0D TIF> >0x28 TIF> >0x0D TIF> >0x21 TIF> >0x0D TIF>
 >0x21 TIF>Found Cortex-M4 r0p1, Little endian. -- CPU_WriteMem(4 bytes @ 0xE0002000) -- CPU_ReadMem(4 bytes @ 0xE000EDF0) -- CPU_ReadMem(4 bytes @ 0xE0002000)FPUnit: 6 code (BP) slots and 2 literal slots -- CPU_ReadMem(4 bytes @ 0xE000EDFC) -- CPU_ReadMem(4 bytes @ 0xE0001000) -- CPU_WriteMem(4 bytes @ 0xE0001000) -- CPU_ReadMem(4 bytes @ 0xE00FF010)TPIU fitted. -- CPU_ReadMem(4 bytes @ 0xE00FF014)ETM fitted. -- CPU_ReadMem(4 bytes @ 0xE00FF018) >0x0D TIF> >0x21 TIF>  returns 0x2BA01477
 (0012ms, 5096ms total)
T0808 2074:080 JLINK_GetDLLVersion()  returns 48403 (0000ms, 5096ms total)
T0808 2074:080 JLINK_CORE_GetFound()  returns 0xE0000FF (0001ms, 5097ms total)
T0808 2074:081 JLINK_GetDebugInfo(0x100) -- Value=0xE00FF003  returns 0x00 (0000ms, 5097ms total)
T0808 2074:081 JLINK_GetDebugInfo(0x101)  returns 0xFFFFFFFF (0000ms, 5097ms total)
T0808 2074:081 JLINK_ReadMemEx(0xE0041FF0, 0x0010 Bytes, ..., AccessWidth = 33554436) -- CPU is running -- CPU_ReadMem(16 bytes @ 0xE0041FF0) -- Data:  0D 00 00 00 90 00 00 00 05 00 00 00 B1 00 00 00  returns 0x10 (0000ms, 5097ms total)
T0808 2074:081 JLINK_ReadMemEx(0xE0041FD0, 0x0020 Bytes, ..., AccessWidth = 33554436) -- CPU is running -- CPU_ReadMem(32 bytes @ 0xE0041FD0) -- Data:  04 00 00 00 00 00 00 00 00 00 00 00 00 00 00 00 ...  returns 0x20 (0001ms, 5098ms total)
T0808 2074:082 JLINK_GetDebugInfo(0x102)  returns 0xFFFFFFFF (0000ms, 5098ms total)
T0808 2074:082 JLINK_GetDebugInfo(0x103)  returns 0xFFFFFFFF (0000ms, 5098ms total)
T0808 2074:082 JLINK_ReadMemEx(0xE0040FF0, 0x0010 Bytes, ..., AccessWidth = 33554436) -- CPU is running -- CPU_ReadMem(16 bytes @ 0xE0040FF0) -- Data:  0D 00 00 00 90 00 00 00 05 00 00 00 B1 00 00 00  returns 0x10 (0001ms, 5099ms total)
T0808 2074:083 JLINK_GetDebugInfo(0x104)  returns 0xFFFFFFFF (0000ms, 5099ms total)
T0808 2074:083 JLINK_GetDebugInfo(0x105)  returns 0xFFFFFFFF (0000ms, 5099ms total)
T0808 2074:083 JLINK_GetDebugInfo(0x106)  returns 0xFFFFFFFF (0000ms, 5099ms total)
T0808 2074:083 JLINK_GetDebugInfo(0x107)  returns 0xFFFFFFFF (0000ms, 5099ms total)
T0808 2074:083 JLINK_GetDebugInfo(0x10C)  returns 0xFFFFFFFF (0000ms, 5099ms total)
T0808 2074:083 JLINK_GetDebugInfo(0x01)  returns 0xFFFFFFFF (0000ms, 5099ms total)
T0808 2074:083 JLINK_GetDeviceFamily()  returns 14 (0000ms, 5099ms total)
T0808 2074:083 JLINK_ReadMemU32(0xE000ED00, 0x0001 Items, ...) -- CPU is running -- CPU_ReadMem(4 bytes @ 0xE000ED00) -- Data:  41 C2 0F 41  returns 0x01 (0000ms, 5099ms total)
T0808 2074:083 JLINK_GetDebugInfo(0x10F)  returns 0xFFFFFFFF (0000ms, 5099ms total)
T0808 2074:083 JLINK_SetResetType(JLINKARM_RESET_TYPE_NORMAL)  returns JLINKARM_RESET_TYPE_NORMAL (0000ms, 5099ms total)
T0808 2074:083 JLINK_Reset() -- CPU is running -- CPU_WriteMem(4 bytes @ 0xE000EDF0) -- CPU is running -- CPU_WriteMem(4 bytes @ 0xE000EDFC) >0x35 TIF> -- CPU is running -- CPU_WriteMem(4 bytes @ 0xE000ED0C) -- CPU is running -- CPU_ReadMem(4 bytes @ 0xE000EDF0) -- CPU is running -- CPU_ReadMem(4 bytes @ 0xE000EDF0) -- CPU is running -- CPU_WriteMem(4 bytes @ 0xE000EDF0) -- CPU is running -- CPU_WriteMem(4 bytes @ 0xE000EDFC) -- CPU is running -- CPU_ReadMem(4 bytes @ 0xE000EDF0)
 -- CPU_WriteMem(4 bytes @ 0xE0002000) -- CPU_ReadMem(4 bytes @ 0xE000EDFC) -- CPU_ReadMem(4 bytes @ 0xE0001000) (0018ms, 5117ms total)
T0808 2074:101 JLINK_ReadReg(R15 (PC))  returns 0x08018158 (0000ms, 5117ms total)
T0808 2074:101 JLINK_ReadReg(XPSR)  returns 0x01000000 (0000ms, 5117ms total)
T0808 2074:101 JLINK_Halt()  returns 0x00 (0000ms, 5117ms total)
T0808 2074:101 JLINK_ReadMemU32(0xE000EDF0, 0x0001 Items, ...) -- CPU_ReadMem(4 bytes @ 0xE000EDF0) -- Data:  03 00 03 00  returns 0x01 (0000ms, 5117ms total)
T0808 2074:101 JLINK_WriteU32(0xE000EDF0, 0xA05F0003) -- CPU_WriteMem(4 bytes @ 0xE000EDF0)  returns 0x00 (0001ms, 5118ms total)
T0808 2074:102 JLINK_WriteU32(0xE000EDFC, 0x01000000) -- CPU_WriteMem(4 bytes @ 0xE000EDFC)  returns 0x00 (0000ms, 5118ms total)
T0808 2074:102 JLINK_GetHWStatus(...)  returns 0x00 (0001ms, 5119ms total)
T0808 2074:103 JLINK_GetNumBPUnits(Type = 0xFFFFFF00)  returns 0x06 (0000ms, 5119ms total)
T0808 2074:103 JLINK_GetNumBPUnits(Type = 0xF0)  returns 0x2000 (0000ms, 5119ms total)
T0808 2074:103 JLINK_GetNumWPUnits()  returns 0x04 (0000ms, 5119ms total)
T0808 2074:103 JLINK_GetSpeed()  returns 0xFA0 (0000ms, 5119ms total)
T0808 2074:103 JLINK_ReadMemU32(0xE000E004, 0x0001 Items, ...) -- CPU_ReadMem(4 bytes @ 0xE000E004) -- Data:  02 00 00 00  returns 0x01 (0000ms, 5119ms total)
T0808 2074:103 JLINK_ReadMemU32(0xE000E004, 0x0001 Items, ...) -- CPU_ReadMem(4 bytes @ 0xE000E004) -- Data:  02 00 00 00  returns 0x01 (0001ms, 5120ms total)
T0808 2074:104 JLINK_WriteMemEx(0xE0001000, 0x001C Bytes, ..., AccessWidth = 33554436) -- Data:  01 00 00 00 00 00 00 00 00 00 00 00 00 00 00 00 ... -- CPU_WriteMem(28 bytes @ 0xE0001000)  returns 0x1C (0000ms, 5120ms total)
T0808 2074:104 JLINK_ReadReg(R15 (PC))  returns 0x08018158 (0001ms, 5121ms total)
T0808 2074:105 JLINK_ReadReg(XPSR)  returns 0x01000000 (0000ms, 5121ms total)
T0808 2074:120 JLINK_ReadMemEx(0xE0001004, 0x0004 Bytes, ..., AccessWidth = 33554432)Mis-aligned memory read: Address: 0xE0001004, NumBytes: 4, Alignment: 2 (Halfword-aligned)
  ***** Mis-aligned memory read: Address: 0xE0001004, NumBytes: 4, Alignment: 2 (Halfword-aligned) -- CPU_ReadMem(4 bytes @ 0xE0001004) -- Data:  00 00 00 00  returns 0x04 (0001ms, 5122ms total)
T0808 2074:209 JLINK_SetResetType(JLINKARM_RESET_TYPE_NORMAL)  returns JLINKARM_RESET_TYPE_NORMAL (0000ms, 5122ms total)
T0808 2074:209 JLINK_Reset() -- CPU_WriteMem(4 bytes @ 0xE000EDF0) -- CPU_WriteMem(4 bytes @ 0xE000EDFC) >0x35 TIF> -- CPU_WriteMem(4 bytes @ 0xE000ED0C) -- CPU_ReadMem(4 bytes @ 0xE000EDF0) -- CPU_ReadMem(4 bytes @ 0xE000EDF0) -- CPU_WriteMem(4 bytes @ 0xE000EDF0) -- CPU_WriteMem(4 bytes @ 0xE000EDFC) -- CPU is running -- CPU_ReadMem(4 bytes @ 0xE000EDF0) -- CPU_WriteMem(4 bytes @ 0xE0002000) -- CPU_ReadMem(4 bytes @ 0xE000EDFC) -- CPU_ReadMem(4 bytes @ 0xE0001000) (0019ms, 5141ms total)
T0808 2074:228 JLINK_ReadReg(R15 (PC))  returns 0x08018158 (0000ms, 5141ms total)
T0808 2074:228 JLINK_ReadReg(XPSR)  returns 0x01000000 (0000ms, 5141ms total)
T0808 2074:228 JLINK_ReadReg(R0)  returns 0x00000000 (0000ms, 5141ms total)
T0808 2074:228 JLINK_ReadReg(R1)  returns 0x00000000 (0000ms, 5141ms total)
T0808 2074:228 JLINK_ReadReg(R2)  returns 0x00000000 (0000ms, 5141ms total)
T0808 2074:228 JLINK_ReadReg(R3)  returns 0x00000000 (0000ms, 5141ms total)
T0808 2074:228 JLINK_ReadReg(R4)  returns 0x00000000 (0000ms, 5141ms total)
T0808 2074:228 JLINK_ReadReg(R5)  returns 0x00000000 (0000ms, 5141ms total)
T0808 2074:228 JLINK_ReadReg(R6)  returns 0x00000000 (0000ms, 5141ms total)
T0808 2074:228 JLINK_ReadReg(R7)  returns 0x00000000 (0000ms, 5141ms total)
T0808 2074:228 JLINK_ReadReg(R8)  returns 0x00000000 (0000ms, 5141ms total)
T0808 2074:228 JLINK_ReadReg(R9)  returns 0x00000000 (0000ms, 5141ms total)
T0808 2074:228 JLINK_ReadReg(R10)  returns 0x00000000 (0000ms, 5141ms total)
T0808 2074:228 JLINK_ReadReg(R11)  returns 0x00000000 (0000ms, 5141ms total)
T0808 2074:228 JLINK_ReadReg(R12)  returns 0x00000000 (0000ms, 5141ms total)
T0808 2074:228 JLINK_ReadReg(R13 (SP))  returns 0x200037F8 (0000ms, 5141ms total)
T0808 2074:228 JLINK_ReadReg(R14)  returns 0xFFFFFFFF (0000ms, 5141ms total)
T0808 2074:228 JLINK_ReadReg(R15 (PC))  returns 0x08018158 (0000ms, 5141ms total)
T0808 2074:228 JLINK_ReadReg(XPSR)  returns 0x01000000 (0000ms, 5141ms total)
T0808 2074:228 JLINK_ReadReg(MSP)  returns 0x200037F8 (0000ms, 5141ms total)
T0808 2074:228 JLINK_ReadReg(PSP)  returns 0x00000000 (0000ms, 5141ms total)
T0808 2074:228 JLINK_ReadReg(CFBP)  returns 0x00000000 (0000ms, 5141ms total)
T0808 2074:228 JLINK_ReadReg(FPSCR)  returns 0x00000000 (0005ms, 5146ms total)
T0808 2074:233 JLINK_ReadReg(FPS0)  returns 0x00000000 (0000ms, 5146ms total)
T0808 2074:233 JLINK_ReadReg(FPS1)  returns 0x00000000 (0000ms, 5146ms total)
T0808 2074:233 JLINK_ReadReg(FPS2)  returns 0x00000000 (0000ms, 5146ms total)
T0808 2074:233 JLINK_ReadReg(FPS3)  returns 0x00000000 (0000ms, 5146ms total)
T0808 2074:233 JLINK_ReadReg(FPS4)  returns 0x00000000 (0000ms, 5146ms total)
T0808 2074:233 JLINK_ReadReg(FPS5)  returns 0x00000000 (0000ms, 5146ms total)
T0808 2074:233 JLINK_ReadReg(FPS6)  returns 0x00000000 (0000ms, 5146ms total)
T0808 2074:233 JLINK_ReadReg(FPS7)  returns 0x00000000 (0000ms, 5146ms total)
T0808 2074:233 JLINK_ReadReg(FPS8)  returns 0x00000000 (0000ms, 5146ms total)
T0808 2074:233 JLINK_ReadReg(FPS9)  returns 0x00000000 (0000ms, 5146ms total)
T0808 2074:233 JLINK_ReadReg(FPS10)  returns 0x00000000 (0000ms, 5146ms total)
T0808 2074:233 JLINK_ReadReg(FPS11)  returns 0x00000000 (0000ms, 5146ms total)
T0808 2074:233 JLINK_ReadReg(FPS12)  returns 0x00000000 (0000ms, 5146ms total)
T0808 2074:233 JLINK_ReadReg(FPS13)  returns 0x00000000 (0000ms, 5146ms total)
T0808 2074:233 JLINK_ReadReg(FPS14)  returns 0x00000000 (0000ms, 5146ms total)
T0808 2074:233 JLINK_ReadReg(FPS15)  returns 0x00000000 (0000ms, 5146ms total)
T0808 2074:233 JLINK_ReadReg(FPS16)  returns 0x00000000 (0000ms, 5146ms total)
T0808 2074:233 JLINK_ReadReg(FPS17)  returns 0x00000000 (0000ms, 5146ms total)
T0808 2074:233 JLINK_ReadReg(FPS18)  returns 0x00000000 (0000ms, 5146ms total)
T0808 2074:233 JLINK_ReadReg(FPS19)  returns 0x00000000 (0000ms, 5146ms total)
T0808 2074:233 JLINK_ReadReg(FPS20)  returns 0x00000000 (0000ms, 5146ms total)
T0808 2074:233 JLINK_ReadReg(FPS21)  returns 0x00000000 (0000ms, 5146ms total)
T0808 2074:233 JLINK_ReadReg(FPS22)  returns 0x00000000 (0000ms, 5146ms total)
T0808 2074:233 JLINK_ReadReg(FPS23)  returns 0x00000000 (0000ms, 5146ms total)
T0808 2074:233 JLINK_ReadReg(FPS24)  returns 0x00000000 (0000ms, 5146ms total)
T0808 2074:233 JLINK_ReadReg(FPS25)  returns 0x00000000 (0000ms, 5146ms total)
T0808 2074:233 JLINK_ReadReg(FPS26)  returns 0x00000000 (0000ms, 5146ms total)
T0808 2074:233 JLINK_ReadReg(FPS27)  returns 0x00000000 (0000ms, 5146ms total)
T0808 2074:233 JLINK_ReadReg(FPS28)  returns 0x00000000 (0000ms, 5146ms total)
T0808 2074:233 JLINK_ReadReg(FPS29)  returns 0x00000000 (0000ms, 5146ms total)
T0808 2074:233 JLINK_ReadReg(FPS30)  returns 0x00000000 (0000ms, 5146ms total)
T0808 2074:233 JLINK_ReadReg(FPS31)  returns 0x00000000 (0000ms, 5146ms total)
T0808 2074:233 JLINK_ReadMemU32(0xE0001004, 0x0001 Items, ...) -- CPU_ReadMem(4 bytes @ 0xE0001004) -- Data:  03 7C 00 00  returns 0x01 (0000ms, 5146ms total)
T0808 2074:415 JLINK_ReadMemEx(0x08018158, 0x0002 Bytes, ..., AccessWidth = 33554432)Mis-aligned memory read: Address: 0x08018158, NumBytes: 2, Alignment: 2 (Halfword-aligned)
  ***** Mis-aligned memory read: Address: 0x08018158, NumBytes: 2, Alignment: 2 (Halfword-aligned) -- CPU_ReadMem(2 bytes @ 0x08018158) -- Data:  06 48  returns 0x02 (0000ms, 5146ms total)
T0808 2074:415 JLINK_ReadMemEx(0x0801815A, 0x0002 Bytes, ..., AccessWidth = 33554432)Mis-aligned memory read: Address: 0x0801815A, NumBytes: 2, Alignment: 2 (Halfword-aligned)
  ***** Mis-aligned memory read: Address: 0x0801815A, NumBytes: 2, Alignment: 2 (Halfword-aligned) -- CPU_ReadMem(2 bytes @ 0x0801815A) -- Data:  80 47  returns 0x02 (0000ms, 5146ms total)
T0808 2075:307 JLINK_ReadMemEx(0x0801815A, 0x0002 Bytes, ..., AccessWidth = 33554432)Mis-aligned memory read: Address: 0x0801815A, NumBytes: 2, Alignment: 2 (Halfword-aligned)
  ***** Mis-aligned memory read: Address: 0x0801815A, NumBytes: 2, Alignment: 2 (Halfword-aligned) -- CPU_ReadMem(2 bytes @ 0x0801815A) -- Data:  80 47  returns 0x02 (0000ms, 5146ms total)
T0808 2075:307 JLINK_ReadMemEx(0x0801815C, 0x0002 Bytes, ..., AccessWidth = 33554432)Mis-aligned memory read: Address: 0x0801815C, NumBytes: 2, Alignment: 2 (Halfword-aligned)
  ***** Mis-aligned memory read: Address: 0x0801815C, NumBytes: 2, Alignment: 2 (Halfword-aligned) -- CPU_ReadMem(2 bytes @ 0x0801815C) -- Data:  06 48  returns 0x02 (0001ms, 5147ms total)
T0808 2075:572 JLINK_ReadMemEx(0x200001E4, 0x0004 Bytes, ..., AccessWidth = 33554432)Mis-aligned memory read: Address: 0x200001E4, NumBytes: 4, Alignment: 2 (Halfword-aligned)
  ***** Mis-aligned memory read: Address: 0x200001E4, NumBytes: 4, Alignment: 2 (Halfword-aligned) -- CPU_ReadMem(4 bytes @ 0x200001E4) -- Data:  00 00 00 00  returns 0x04 (0001ms, 5148ms total)
T0808 2075:574 JLINK_ReadMemEx(0x200001E0, 0x0004 Bytes, ..., AccessWidth = 33554432)Mis-aligned memory read: Address: 0x200001E0, NumBytes: 4, Alignment: 2 (Halfword-aligned)
  ***** Mis-aligned memory read: Address: 0x200001E0, NumBytes: 4, Alignment: 2 (Halfword-aligned) -- CPU_ReadMem(4 bytes @ 0x200001E0) -- Data:  00 00 00 00  returns 0x04 (0000ms, 5148ms total)
T0808 2075:575 JLINK_ReadMemEx(0x200001E8, 0x0004 Bytes, ..., AccessWidth = 33554432)Mis-aligned memory read: Address: 0x200001E8, NumBytes: 4, Alignment: 2 (Halfword-aligned)
  ***** Mis-aligned memory read: Address: 0x200001E8, NumBytes: 4, Alignment: 2 (Halfword-aligned) -- CPU_ReadMem(4 bytes @ 0x200001E8) -- Data:  00 00 00 00  returns 0x04 (0001ms, 5149ms total)
T0808 2075:582 JLINK_ReadMemEx(0x200000F5, 0x0001 Bytes, ..., AccessWidth = 33554432)Mis-aligned memory read: Address: 0x200000F5, NumBytes: 1, Alignment: 2 (Halfword-aligned)
  ***** Mis-aligned memory read: Address: 0x200000F5, NumBytes: 1, Alignment: 2 (Halfword-aligned) -- CPU_ReadMem(1 bytes @ 0x200000F5) -- Data:  00  returns 0x01 (0001ms, 5150ms total)
T0808 2075:596 JLINK_ReadMemEx(0x20000344, 0x0004 Bytes, ..., AccessWidth = 33554432)Mis-aligned memory read: Address: 0x20000344, NumBytes: 4, Alignment: 2 (Halfword-aligned)
  ***** Mis-aligned memory read: Address: 0x20000344, NumBytes: 4, Alignment: 2 (Halfword-aligned) -- CPU_ReadMem(4 bytes @ 0x20000344) -- Data:  B3 F9 FF FF  returns 0x04 (0001ms, 5151ms total)
T0808 2075:600 JLINK_ReadMemEx(0x20000428, 0x0004 Bytes, ..., AccessWidth = 33554432)Mis-aligned memory read: Address: 0x20000428, NumBytes: 4, Alignment: 2 (Halfword-aligned)
  ***** Mis-aligned memory read: Address: 0x20000428, NumBytes: 4, Alignment: 2 (Halfword-aligned) -- CPU_ReadMem(4 bytes @ 0x20000428) -- Data:  00 00 00 00  returns 0x04 (0000ms, 5151ms total)
T0808 2075:602 JLINK_ReadMemEx(0x20000420, 0x0004 Bytes, ..., AccessWidth = 33554432)Mis-aligned memory read: Address: 0x20000420, NumBytes: 4, Alignment: 2 (Halfword-aligned)
  ***** Mis-aligned memory read: Address: 0x20000420, NumBytes: 4, Alignment: 2 (Halfword-aligned) -- CPU_ReadMem(4 bytes @ 0x20000420) -- Data:  00 00 00 00  returns 0x04 (0001ms, 5152ms total)
T0808 2075:611 JLINK_ReadMemEx(0x20002784, 0x0020 Bytes, ..., AccessWidth = 33554432)Mis-aligned memory read: Address: 0x20002784, NumBytes: 32, Alignment: 2 (Halfword-aligned)
  ***** Mis-aligned memory read: Address: 0x20002784, NumBytes: 32, Alignment: 2 (Halfword-aligned) -- CPU_ReadMem(32 bytes @ 0x20002784) -- Data:  F9 FF FF 21 00 00 00 6E 6A AA AF 03 07 00 00 00 ...  returns 0x20 (0001ms, 5153ms total)
T0808 2075:617 JLINK_ReadMemEx(0x20000B14, 0x0020 Bytes, ..., AccessWidth = 33554432)Mis-aligned memory read: Address: 0x20000B14, NumBytes: 32, Alignment: 2 (Halfword-aligned)
  ***** Mis-aligned memory read: Address: 0x20000B14, NumBytes: 32, Alignment: 2 (Halfword-aligned) -- CPU_ReadMem(32 bytes @ 0x20000B14) -- Data:  AA AF 03 07 00 00 00 00 00 00 00 63 77 FF 21 00 ...  returns 0x20 (0001ms, 5154ms total)
T11D4 2075:657 JLINK_ReadMemEx(0x08018158, 0x0002 Bytes, ..., AccessWidth = 33554432)Mis-aligned memory read: Address: 0x08018158, NumBytes: 2, Alignment: 2 (Halfword-aligned)
  ***** Mis-aligned memory read: Address: 0x08018158, NumBytes: 2, Alignment: 2 (Halfword-aligned) -- CPU_ReadMem(2 bytes @ 0x08018158) -- Data:  06 48  returns 0x02 (0000ms, 5154ms total)
T11D4 2075:657 JLINK_SetBPEx(Addr = 0x080004A0, Type = 0xFFFFFFF2)  returns 0x00000001 (0000ms, 5154ms total)
T11D4 2075:657 JLINK_Go() -- CPU_WriteMem(4 bytes @ 0xE0002000) -- CPU_WriteMem(4 bytes @ 0xE0002008) -- CPU_WriteMem(4 bytes @ 0xE000200C) -- CPU_WriteMem(4 bytes @ 0xE0002010) -- CPU_WriteMem(4 bytes @ 0xE0002014) -- CPU_WriteMem(4 bytes @ 0xE0002018) -- CPU_WriteMem(4 bytes @ 0xE000201C) -- CPU_WriteMem(4 bytes @ 0xE0001004) (0005ms, 5159ms total)
T11D4 2075:763 JLINK_IsHalted()  returns TRUE (0003ms, 5162ms total)
T11D4 2075:766 JLINK_Halt()  returns 0x00 (0000ms, 5159ms total)
T11D4 2075:766 JLINK_IsHalted()  returns TRUE (0000ms, 5159ms total)
T11D4 2075:766 JLINK_IsHalted()  returns TRUE (0000ms, 5159ms total)
T11D4 2075:766 JLINK_IsHalted()  returns TRUE (0000ms, 5159ms total)
T11D4 2075:766 JLINK_ReadReg(R15 (PC))  returns 0x080004A0 (0000ms, 5159ms total)
T11D4 2075:766 JLINK_ReadReg(XPSR)  returns 0x61000000 (0000ms, 5159ms total)
T11D4 2075:766 JLINK_ClrBPEx(BPHandle = 0x00000001)  returns 0x00 (0000ms, 5159ms total)
T11D4 2075:766 JLINK_ReadMemU32(0xE000ED30, 0x0001 Items, ...) -- CPU_ReadMem(4 bytes @ 0xE000ED30) -- Data:  03 00 00 00  returns 0x01 (0000ms, 5159ms total)
T11D4 2075:766 JLINK_ReadMemU32(0xE0001028, 0x0001 Items, ...) -- CPU_ReadMem(4 bytes @ 0xE0001028) -- Data:  00 00 00 00  returns 0x01 (0001ms, 5160ms total)
T11D4 2075:767 JLINK_ReadMemU32(0xE0001038, 0x0001 Items, ...) -- CPU_ReadMem(4 bytes @ 0xE0001038) -- Data:  00 02 00 00  returns 0x01 (0000ms, 5160ms total)
T11D4 2075:767 JLINK_ReadMemU32(0xE0001048, 0x0001 Items, ...) -- CPU_ReadMem(4 bytes @ 0xE0001048) -- Data:  00 00 00 00  returns 0x01 (0000ms, 5160ms total)
T11D4 2075:767 JLINK_ReadMemU32(0xE0001058, 0x0001 Items, ...) -- CPU_ReadMem(4 bytes @ 0xE0001058) -- Data:  00 00 00 00  returns 0x01 (0001ms, 5161ms total)
T11D4 2075:768 JLINK_ReadReg(R0)  returns 0x080004A1 (0000ms, 5161ms total)
T11D4 2075:768 JLINK_ReadReg(R1)  returns 0x200037F8 (0000ms, 5161ms total)
T11D4 2075:768 JLINK_ReadReg(R2)  returns 0x00000000 (0000ms, 5161ms total)
T11D4 2075:768 JLINK_ReadReg(R3)  returns 0x08019F0F (0000ms, 5161ms total)
T11D4 2075:768 JLINK_ReadReg(R4)  returns 0x0801A6A0 (0000ms, 5161ms total)
T11D4 2075:768 JLINK_ReadReg(R5)  returns 0x0801A6A0 (0000ms, 5161ms total)
T11D4 2075:768 JLINK_ReadReg(R6)  returns 0x00000000 (0000ms, 5161ms total)
T11D4 2075:768 JLINK_ReadReg(R7)  returns 0x00000000 (0000ms, 5161ms total)
T11D4 2075:768 JLINK_ReadReg(R8)  returns 0x00000000 (0000ms, 5161ms total)
T11D4 2075:768 JLINK_ReadReg(R9)  returns 0x00000000 (0000ms, 5161ms total)
T11D4 2075:768 JLINK_ReadReg(R10)  returns 0x00000000 (0000ms, 5161ms total)
T11D4 2075:768 JLINK_ReadReg(R11)  returns 0x00000000 (0000ms, 5161ms total)
T11D4 2075:768 JLINK_ReadReg(R12)  returns 0x00000000 (0000ms, 5161ms total)
T11D4 2075:768 JLINK_ReadReg(R13 (SP))  returns 0x200037F8 (0000ms, 5161ms total)
T11D4 2075:768 JLINK_ReadReg(R14)  returns 0x08019EA1 (0000ms, 5161ms total)
T11D4 2075:768 JLINK_ReadReg(R15 (PC))  returns 0x080004A0 (0000ms, 5161ms total)
T11D4 2075:768 JLINK_ReadReg(XPSR)  returns 0x61000000 (0000ms, 5161ms total)
T11D4 2075:768 JLINK_ReadReg(MSP)  returns 0x200037F8 (0000ms, 5161ms total)
T11D4 2075:768 JLINK_ReadReg(PSP)  returns 0x00000000 (0000ms, 5161ms total)
T11D4 2075:768 JLINK_ReadReg(CFBP)  returns 0x00000000 (0000ms, 5161ms total)
T11D4 2075:768 JLINK_ReadReg(FPSCR)  returns 0x00000000 (0005ms, 5166ms total)
T11D4 2075:773 JLINK_ReadReg(FPS0)  returns 0x00000000 (0000ms, 5166ms total)
T11D4 2075:773 JLINK_ReadReg(FPS1)  returns 0x00000000 (0000ms, 5166ms total)
T11D4 2075:773 JLINK_ReadReg(FPS2)  returns 0x00000000 (0000ms, 5166ms total)
T11D4 2075:773 JLINK_ReadReg(FPS3)  returns 0x00000000 (0000ms, 5166ms total)
T11D4 2075:773 JLINK_ReadReg(FPS4)  returns 0x00000000 (0000ms, 5166ms total)
T11D4 2075:773 JLINK_ReadReg(FPS5)  returns 0x00000000 (0000ms, 5166ms total)
T11D4 2075:773 JLINK_ReadReg(FPS6)  returns 0x00000000 (0000ms, 5166ms total)
T11D4 2075:773 JLINK_ReadReg(FPS7)  returns 0x00000000 (0000ms, 5166ms total)
T11D4 2075:773 JLINK_ReadReg(FPS8)  returns 0x00000000 (0000ms, 5166ms total)
T11D4 2075:773 JLINK_ReadReg(FPS9)  returns 0x00000000 (0000ms, 5166ms total)
T11D4 2075:773 JLINK_ReadReg(FPS10)  returns 0x00000000 (0000ms, 5166ms total)
T11D4 2075:773 JLINK_ReadReg(FPS11)  returns 0x00000000 (0000ms, 5166ms total)
T11D4 2075:773 JLINK_ReadReg(FPS12)  returns 0x00000000 (0000ms, 5166ms total)
T11D4 2075:773 JLINK_ReadReg(FPS13)  returns 0x00000000 (0000ms, 5166ms total)
T11D4 2075:773 JLINK_ReadReg(FPS14)  returns 0x00000000 (0000ms, 5166ms total)
T11D4 2075:773 JLINK_ReadReg(FPS15)  returns 0x00000000 (0000ms, 5166ms total)
T11D4 2075:773 JLINK_ReadReg(FPS16)  returns 0x00000000 (0000ms, 5166ms total)
T11D4 2075:773 JLINK_ReadReg(FPS17)  returns 0x00000000 (0000ms, 5166ms total)
T11D4 2075:773 JLINK_ReadReg(FPS18)  returns 0x00000000 (0000ms, 5166ms total)
T11D4 2075:773 JLINK_ReadReg(FPS19)  returns 0x00000000 (0000ms, 5166ms total)
T11D4 2075:773 JLINK_ReadReg(FPS20)  returns 0x00000000 (0000ms, 5166ms total)
T11D4 2075:773 JLINK_ReadReg(FPS21)  returns 0x00000000 (0000ms, 5166ms total)
T11D4 2075:773 JLINK_ReadReg(FPS22)  returns 0x00000000 (0000ms, 5166ms total)
T11D4 2075:773 JLINK_ReadReg(FPS23)  returns 0x00000000 (0000ms, 5166ms total)
T11D4 2075:773 JLINK_ReadReg(FPS24)  returns 0x00000000 (0000ms, 5166ms total)
T11D4 2075:773 JLINK_ReadReg(FPS25)  returns 0x00000000 (0000ms, 5166ms total)
T11D4 2075:773 JLINK_ReadReg(FPS26)  returns 0x00000000 (0000ms, 5166ms total)
T11D4 2075:773 JLINK_ReadReg(FPS27)  returns 0x00000000 (0000ms, 5166ms total)
T11D4 2075:773 JLINK_ReadReg(FPS28)  returns 0x00000000 (0000ms, 5166ms total)
T11D4 2075:773 JLINK_ReadReg(FPS29)  returns 0x00000000 (0000ms, 5166ms total)
T11D4 2075:773 JLINK_ReadReg(FPS30)  returns 0x00000000 (0000ms, 5166ms total)
T11D4 2075:773 JLINK_ReadReg(FPS31)  returns 0x00000000 (0000ms, 5166ms total)
T0808 2075:777 JLINK_ReadMemU32(0xE0001004, 0x0001 Items, ...) -- CPU_ReadMem(4 bytes @ 0xE0001004) -- Data:  87 7C 00 00  returns 0x01 (0000ms, 5166ms total)
T0808 2075:779 JLINK_ReadMemEx(0x080004A0, 0x0002 Bytes, ..., AccessWidth = 33554432)Mis-aligned memory read: Address: 0x080004A0, NumBytes: 2, Alignment: 2 (Halfword-aligned)
  ***** Mis-aligned memory read: Address: 0x080004A0, NumBytes: 2, Alignment: 2 (Halfword-aligned) -- CPU_ReadMem(64 bytes @ 0x08000480) -- Updating DA cache (64 bytes @ 0x08000480) -- Read from DA cache (2 bytes @ 0x080004A0) -- Data:  00 F0  returns 0x02 (0002ms, 5168ms total)
T0808 2075:781 JLINK_ReadMemEx(0x080004A2, 0x0002 Bytes, ..., AccessWidth = 33554432)Mis-aligned memory read: Address: 0x080004A2, NumBytes: 2, Alignment: 2 (Halfword-aligned)
  ***** Mis-aligned memory read: Address: 0x080004A2, NumBytes: 2, Alignment: 2 (Halfword-aligned) -- Read from DA cache (2 bytes @ 0x080004A2) -- Data:  0C F9  returns 0x02 (0000ms, 5168ms total)
T0808 2075:781 JLINK_ReadMemEx(0x080004A4, 0x0002 Bytes, ..., AccessWidth = 33554432)Mis-aligned memory read: Address: 0x080004A4, NumBytes: 2, Alignment: 2 (Halfword-aligned)
  ***** Mis-aligned memory read: Address: 0x080004A4, NumBytes: 2, Alignment: 2 (Halfword-aligned) -- Read from DA cache (2 bytes @ 0x080004A4) -- Data:  03 49  returns 0x02 (0000ms, 5168ms total)
T0808 2075:781 JLINK_ReadMemEx(0x080004A6, 0x0002 Bytes, ..., AccessWidth = 33554432)Mis-aligned memory read: Address: 0x080004A6, NumBytes: 2, Alignment: 2 (Halfword-aligned)
  ***** Mis-aligned memory read: Address: 0x080004A6, NumBytes: 2, Alignment: 2 (Halfword-aligned) -- Read from DA cache (2 bytes @ 0x080004A6) -- Data:  08 70  returns 0x02 (0000ms, 5168ms total)
T0808 2075:781 JLINK_ReadMemEx(0x080004A6, 0x0002 Bytes, ..., AccessWidth = 33554432)Mis-aligned memory read: Address: 0x080004A6, NumBytes: 2, Alignment: 2 (Halfword-aligned)
  ***** Mis-aligned memory read: Address: 0x080004A6, NumBytes: 2, Alignment: 2 (Halfword-aligned) -- Read from DA cache (2 bytes @ 0x080004A6) -- Data:  08 70  returns 0x02 (0000ms, 5168ms total)
T0808 2075:781 JLINK_ReadMemEx(0x080004A8, 0x0002 Bytes, ..., AccessWidth = 33554432)Mis-aligned memory read: Address: 0x080004A8, NumBytes: 2, Alignment: 2 (Halfword-aligned)
  ***** Mis-aligned memory read: Address: 0x080004A8, NumBytes: 2, Alignment: 2 (Halfword-aligned) -- Read from DA cache (2 bytes @ 0x080004A8) -- Data:  00 F0  returns 0x02 (0000ms, 5168ms total)
T11D4 2088:599 JLINK_ReadMemEx(0x080004A0, 0x0002 Bytes, ..., AccessWidth = 33554432)Mis-aligned memory read: Address: 0x080004A0, NumBytes: 2, Alignment: 2 (Halfword-aligned)
  ***** Mis-aligned memory read: Address: 0x080004A0, NumBytes: 2, Alignment: 2 (Halfword-aligned) -- Read from DA cache (2 bytes @ 0x080004A0) -- Data:  00 F0  returns 0x02 (0001ms, 5169ms total)
T11D4 2088:600 JLINK_Step() -- Read from DA cache (2 bytes @ 0x080004A0) -- Not simulated -- CPU_WriteMem(4 bytes @ 0xE0002008)  returns 0x00 (0005ms, 5174ms total)
T11D4 2088:605 JLINK_ReadReg(R15 (PC))  returns 0x080006BC (0000ms, 5174ms total)
T11D4 2088:605 JLINK_ReadReg(XPSR)  returns 0x61000000 (0000ms, 5174ms total)
T11D4 2088:605 JLINK_ReadReg(R0)  returns 0x080004A1 (0000ms, 5174ms total)
T11D4 2088:605 JLINK_ReadReg(R1)  returns 0x200037F8 (0000ms, 5174ms total)
T11D4 2088:605 JLINK_ReadReg(R2)  returns 0x00000000 (0000ms, 5174ms total)
T11D4 2088:605 JLINK_ReadReg(R3)  returns 0x08019F0F (0000ms, 5174ms total)
T11D4 2088:605 JLINK_ReadReg(R4)  returns 0x0801A6A0 (0000ms, 5174ms total)
T11D4 2088:605 JLINK_ReadReg(R5)  returns 0x0801A6A0 (0000ms, 5174ms total)
T11D4 2088:605 JLINK_ReadReg(R6)  returns 0x00000000 (0000ms, 5174ms total)
T11D4 2088:605 JLINK_ReadReg(R7)  returns 0x00000000 (0000ms, 5174ms total)
T11D4 2088:605 JLINK_ReadReg(R8)  returns 0x00000000 (0000ms, 5174ms total)
T11D4 2088:605 JLINK_ReadReg(R9)  returns 0x00000000 (0000ms, 5174ms total)
T11D4 2088:605 JLINK_ReadReg(R10)  returns 0x00000000 (0000ms, 5174ms total)
T11D4 2088:605 JLINK_ReadReg(R11)  returns 0x00000000 (0000ms, 5174ms total)
T11D4 2088:605 JLINK_ReadReg(R12)  returns 0x00000000 (0000ms, 5174ms total)
T11D4 2088:605 JLINK_ReadReg(R13 (SP))  returns 0x200037F8 (0000ms, 5174ms total)
T11D4 2088:605 JLINK_ReadReg(R14)  returns 0x080004A5 (0000ms, 5174ms total)
T11D4 2088:605 JLINK_ReadReg(R15 (PC))  returns 0x080006BC (0000ms, 5174ms total)
T11D4 2088:605 JLINK_ReadReg(XPSR)  returns 0x61000000 (0000ms, 5174ms total)
T11D4 2088:605 JLINK_ReadReg(MSP)  returns 0x200037F8 (0000ms, 5174ms total)
T11D4 2088:605 JLINK_ReadReg(PSP)  returns 0x00000000 (0000ms, 5174ms total)
T11D4 2088:605 JLINK_ReadReg(CFBP)  returns 0x00000000 (0000ms, 5174ms total)
T11D4 2088:605 JLINK_ReadReg(FPSCR)  returns 0x00000000 (0005ms, 5179ms total)
T11D4 2088:610 JLINK_ReadReg(FPS0)  returns 0x00000000 (0000ms, 5179ms total)
T11D4 2088:610 JLINK_ReadReg(FPS1)  returns 0x00000000 (0000ms, 5179ms total)
T11D4 2088:610 JLINK_ReadReg(FPS2)  returns 0x00000000 (0000ms, 5179ms total)
T11D4 2088:610 JLINK_ReadReg(FPS3)  returns 0x00000000 (0000ms, 5179ms total)
T11D4 2088:610 JLINK_ReadReg(FPS4)  returns 0x00000000 (0000ms, 5179ms total)
T11D4 2088:610 JLINK_ReadReg(FPS5)  returns 0x00000000 (0000ms, 5179ms total)
T11D4 2088:610 JLINK_ReadReg(FPS6)  returns 0x00000000 (0000ms, 5179ms total)
T11D4 2088:610 JLINK_ReadReg(FPS7)  returns 0x00000000 (0000ms, 5179ms total)
T11D4 2088:610 JLINK_ReadReg(FPS8)  returns 0x00000000 (0000ms, 5179ms total)
T11D4 2088:610 JLINK_ReadReg(FPS9)  returns 0x00000000 (0000ms, 5179ms total)
T11D4 2088:610 JLINK_ReadReg(FPS10)  returns 0x00000000 (0000ms, 5179ms total)
T11D4 2088:610 JLINK_ReadReg(FPS11)  returns 0x00000000 (0000ms, 5179ms total)
T11D4 2088:610 JLINK_ReadReg(FPS12)  returns 0x00000000 (0000ms, 5179ms total)
T11D4 2088:610 JLINK_ReadReg(FPS13)  returns 0x00000000 (0000ms, 5179ms total)
T11D4 2088:610 JLINK_ReadReg(FPS14)  returns 0x00000000 (0000ms, 5179ms total)
T11D4 2088:610 JLINK_ReadReg(FPS15)  returns 0x00000000 (0000ms, 5179ms total)
T11D4 2088:610 JLINK_ReadReg(FPS16)  returns 0x00000000 (0000ms, 5179ms total)
T11D4 2088:610 JLINK_ReadReg(FPS17)  returns 0x00000000 (0000ms, 5179ms total)
T11D4 2088:610 JLINK_ReadReg(FPS18)  returns 0x00000000 (0000ms, 5179ms total)
T11D4 2088:610 JLINK_ReadReg(FPS19)  returns 0x00000000 (0000ms, 5179ms total)
T11D4 2088:610 JLINK_ReadReg(FPS20)  returns 0x00000000 (0000ms, 5179ms total)
T11D4 2088:610 JLINK_ReadReg(FPS21)  returns 0x00000000 (0000ms, 5179ms total)
T11D4 2088:610 JLINK_ReadReg(FPS22)  returns 0x00000000 (0000ms, 5179ms total)
T11D4 2088:610 JLINK_ReadReg(FPS23)  returns 0x00000000 (0000ms, 5179ms total)
T11D4 2088:610 JLINK_ReadReg(FPS24)  returns 0x00000000 (0000ms, 5179ms total)
T11D4 2088:610 JLINK_ReadReg(FPS25)  returns 0x00000000 (0000ms, 5179ms total)
T11D4 2088:610 JLINK_ReadReg(FPS26)  returns 0x00000000 (0000ms, 5179ms total)
T11D4 2088:610 JLINK_ReadReg(FPS27)  returns 0x00000000 (0000ms, 5179ms total)
T11D4 2088:610 JLINK_ReadReg(FPS28)  returns 0x00000000 (0000ms, 5179ms total)
T11D4 2088:610 JLINK_ReadReg(FPS29)  returns 0x00000000 (0000ms, 5179ms total)
T11D4 2088:610 JLINK_ReadReg(FPS30)  returns 0x00000000 (0000ms, 5179ms total)
T11D4 2088:610 JLINK_ReadReg(FPS31)  returns 0x00000000 (0000ms, 5179ms total)
T0808 2088:613 JLINK_ReadMemU32(0xE0001004, 0x0001 Items, ...) -- CPU_ReadMem(4 bytes @ 0xE0001004) -- Data:  88 7C 00 00  returns 0x01 (0001ms, 5180ms total)
T0808 2088:617 JLINK_ReadMemEx(0x080006BC, 0x0002 Bytes, ..., AccessWidth = 33554432)Mis-aligned memory read: Address: 0x080006BC, NumBytes: 2, Alignment: 2 (Halfword-aligned)
  ***** Mis-aligned memory read: Address: 0x080006BC, NumBytes: 2, Alignment: 2 (Halfword-aligned) -- CPU_ReadMem(64 bytes @ 0x08000680) -- Updating DA cache (64 bytes @ 0x08000680) -- Read from DA cache (2 bytes @ 0x080006BC) -- Data:  10 B5  returns 0x02 (0002ms, 5182ms total)
T0808 2088:619 JLINK_ReadMemEx(0x080006BE, 0x0002 Bytes, ..., AccessWidth = 33554432)Mis-aligned memory read: Address: 0x080006BE, NumBytes: 2, Alignment: 2 (Halfword-aligned)
  ***** Mis-aligned memory read: Address: 0x080006BE, NumBytes: 2, Alignment: 2 (Halfword-aligned) -- Read from DA cache (2 bytes @ 0x080006BE) -- Data:  4F F4  returns 0x02 (0000ms, 5182ms total)
T0808 2088:619 JLINK_ReadMemEx(0x080006BE, 0x0002 Bytes, ..., AccessWidth = 33554432)Mis-aligned memory read: Address: 0x080006BE, NumBytes: 2, Alignment: 2 (Halfword-aligned)
  ***** Mis-aligned memory read: Address: 0x080006BE, NumBytes: 2, Alignment: 2 (Halfword-aligned) -- Read from DA cache (2 bytes @ 0x080006BE) -- Data:  4F F4  returns 0x02 (0000ms, 5182ms total)
T0808 2088:619 JLINK_ReadMemEx(0x080006C0, 0x0002 Bytes, ..., AccessWidth = 33554432)Mis-aligned memory read: Address: 0x080006C0, NumBytes: 2, Alignment: 2 (Halfword-aligned)
  ***** Mis-aligned memory read: Address: 0x080006C0, NumBytes: 2, Alignment: 2 (Halfword-aligned) -- CPU_ReadMem(64 bytes @ 0x080006C0) -- Updating DA cache (64 bytes @ 0x080006C0) -- Read from DA cache (2 bytes @ 0x080006C0) -- Data:  80 60  returns 0x02 (0001ms, 5183ms total)
T11D4 2089:914 JLINK_ReadMemEx(0x080006BC, 0x0002 Bytes, ..., AccessWidth = 33554432)Mis-aligned memory read: Address: 0x080006BC, NumBytes: 2, Alignment: 2 (Halfword-aligned)
  ***** Mis-aligned memory read: Address: 0x080006BC, NumBytes: 2, Alignment: 2 (Halfword-aligned) -- Read from DA cache (2 bytes @ 0x080006BC) -- Data:  10 B5  returns 0x02 (0001ms, 5184ms total)
T11D4 2089:915 JLINK_Step() -- Read from DA cache (2 bytes @ 0x080006BC) -- Not simulated  returns 0x00 (0004ms, 5188ms total)
T11D4 2089:919 JLINK_ReadReg(R15 (PC))  returns 0x080006BE (0001ms, 5189ms total)
T11D4 2089:920 JLINK_ReadReg(XPSR)  returns 0x61000000 (0000ms, 5189ms total)
T11D4 2089:920 JLINK_ReadReg(R0)  returns 0x080004A1 (0000ms, 5189ms total)
T11D4 2089:920 JLINK_ReadReg(R1)  returns 0x200037F8 (0000ms, 5189ms total)
T11D4 2089:920 JLINK_ReadReg(R2)  returns 0x00000000 (0000ms, 5189ms total)
T11D4 2089:920 JLINK_ReadReg(R3)  returns 0x08019F0F (0000ms, 5189ms total)
T11D4 2089:920 JLINK_ReadReg(R4)  returns 0x0801A6A0 (0000ms, 5189ms total)
T11D4 2089:920 JLINK_ReadReg(R5)  returns 0x0801A6A0 (0000ms, 5189ms total)
T11D4 2089:920 JLINK_ReadReg(R6)  returns 0x00000000 (0000ms, 5189ms total)
T11D4 2089:920 JLINK_ReadReg(R7)  returns 0x00000000 (0000ms, 5189ms total)
T11D4 2089:920 JLINK_ReadReg(R8)  returns 0x00000000 (0000ms, 5189ms total)
T11D4 2089:920 JLINK_ReadReg(R9)  returns 0x00000000 (0000ms, 5189ms total)
T11D4 2089:920 JLINK_ReadReg(R10)  returns 0x00000000 (0000ms, 5189ms total)
T11D4 2089:920 JLINK_ReadReg(R11)  returns 0x00000000 (0000ms, 5189ms total)
T11D4 2089:920 JLINK_ReadReg(R12)  returns 0x00000000 (0000ms, 5189ms total)
T11D4 2089:920 JLINK_ReadReg(R13 (SP))  returns 0x200037F0 (0000ms, 5189ms total)
T11D4 2089:920 JLINK_ReadReg(R14)  returns 0x080004A5 (0000ms, 5189ms total)
T11D4 2089:920 JLINK_ReadReg(R15 (PC))  returns 0x080006BE (0000ms, 5189ms total)
T11D4 2089:920 JLINK_ReadReg(XPSR)  returns 0x61000000 (0000ms, 5189ms total)
T11D4 2089:920 JLINK_ReadReg(MSP)  returns 0x200037F0 (0000ms, 5189ms total)
T11D4 2089:920 JLINK_ReadReg(PSP)  returns 0x00000000 (0000ms, 5189ms total)
T11D4 2089:920 JLINK_ReadReg(CFBP)  returns 0x00000000 (0000ms, 5189ms total)
T11D4 2089:920 JLINK_ReadReg(FPSCR)  returns 0x00000000 (0012ms, 5201ms total)
T11D4 2089:932 JLINK_ReadReg(FPS0)  returns 0x00000000 (0000ms, 5201ms total)
T11D4 2089:932 JLINK_ReadReg(FPS1)  returns 0x00000000 (0000ms, 5201ms total)
T11D4 2089:932 JLINK_ReadReg(FPS2)  returns 0x00000000 (0000ms, 5201ms total)
T11D4 2089:932 JLINK_ReadReg(FPS3)  returns 0x00000000 (0000ms, 5201ms total)
T11D4 2089:932 JLINK_ReadReg(FPS4)  returns 0x00000000 (0000ms, 5201ms total)
T11D4 2089:932 JLINK_ReadReg(FPS5)  returns 0x00000000 (0000ms, 5201ms total)
T11D4 2089:932 JLINK_ReadReg(FPS6)  returns 0x00000000 (0000ms, 5201ms total)
T11D4 2089:932 JLINK_ReadReg(FPS7)  returns 0x00000000 (0000ms, 5201ms total)
T11D4 2089:932 JLINK_ReadReg(FPS8)  returns 0x00000000 (0000ms, 5201ms total)
T11D4 2089:932 JLINK_ReadReg(FPS9)  returns 0x00000000 (0000ms, 5201ms total)
T11D4 2089:932 JLINK_ReadReg(FPS10)  returns 0x00000000 (0000ms, 5201ms total)
T11D4 2089:932 JLINK_ReadReg(FPS11)  returns 0x00000000 (0000ms, 5201ms total)
T11D4 2089:932 JLINK_ReadReg(FPS12)  returns 0x00000000 (0000ms, 5201ms total)
T11D4 2089:932 JLINK_ReadReg(FPS13)  returns 0x00000000 (0000ms, 5201ms total)
T11D4 2089:932 JLINK_ReadReg(FPS14)  returns 0x00000000 (0000ms, 5201ms total)
T11D4 2089:932 JLINK_ReadReg(FPS15)  returns 0x00000000 (0000ms, 5201ms total)
T11D4 2089:932 JLINK_ReadReg(FPS16)  returns 0x00000000 (0000ms, 5201ms total)
T11D4 2089:932 JLINK_ReadReg(FPS17)  returns 0x00000000 (0000ms, 5201ms total)
T11D4 2089:932 JLINK_ReadReg(FPS18)  returns 0x00000000 (0000ms, 5201ms total)
T11D4 2089:932 JLINK_ReadReg(FPS19)  returns 0x00000000 (0000ms, 5201ms total)
T11D4 2089:932 JLINK_ReadReg(FPS20)  returns 0x00000000 (0000ms, 5201ms total)
T11D4 2089:932 JLINK_ReadReg(FPS21)  returns 0x00000000 (0000ms, 5201ms total)
T11D4 2089:932 JLINK_ReadReg(FPS22)  returns 0x00000000 (0000ms, 5201ms total)
T11D4 2089:932 JLINK_ReadReg(FPS23)  returns 0x00000000 (0000ms, 5201ms total)
T11D4 2089:932 JLINK_ReadReg(FPS24)  returns 0x00000000 (0000ms, 5201ms total)
T11D4 2089:932 JLINK_ReadReg(FPS25)  returns 0x00000000 (0000ms, 5201ms total)
T11D4 2089:932 JLINK_ReadReg(FPS26)  returns 0x00000000 (0000ms, 5201ms total)
T11D4 2089:932 JLINK_ReadReg(FPS27)  returns 0x00000000 (0000ms, 5201ms total)
T11D4 2089:932 JLINK_ReadReg(FPS28)  returns 0x00000000 (0000ms, 5201ms total)
T11D4 2089:932 JLINK_ReadReg(FPS29)  returns 0x00000000 (0000ms, 5201ms total)
T11D4 2089:932 JLINK_ReadReg(FPS30)  returns 0x00000000 (0000ms, 5201ms total)
T11D4 2089:932 JLINK_ReadReg(FPS31)  returns 0x00000000 (0000ms, 5201ms total)
T0808 2089:932 JLINK_ReadMemEx(0x200037F4, 0x0004 Bytes, ..., AccessWidth = 33554432)Mis-aligned memory read: Address: 0x200037F4, NumBytes: 4, Alignment: 2 (Halfword-aligned)
  ***** Mis-aligned memory read: Address: 0x200037F4, NumBytes: 4, Alignment: 2 (Halfword-aligned) -- CPU_ReadMem(4 bytes @ 0x200037F4) -- Data:  A5 04 00 08  returns 0x04 (0001ms, 5202ms total)
T0808 2089:933 JLINK_ReadMemEx(0x200037F0, 0x0004 Bytes, ..., AccessWidth = 33554432)Mis-aligned memory read: Address: 0x200037F0, NumBytes: 4, Alignment: 2 (Halfword-aligned)
  ***** Mis-aligned memory read: Address: 0x200037F0, NumBytes: 4, Alignment: 2 (Halfword-aligned) -- CPU_ReadMem(4 bytes @ 0x200037F0) -- Data:  A0 A6 01 08  returns 0x04 (0000ms, 5202ms total)
T0808 2089:934 JLINK_ReadMemU32(0xE0001004, 0x0001 Items, ...) -- CPU_ReadMem(4 bytes @ 0xE0001004) -- Data:  8B 7C 00 00  returns 0x01 (0000ms, 5202ms total)
T0808 2089:939 JLINK_ReadMemEx(0x080006BE, 0x0002 Bytes, ..., AccessWidth = 33554432)Mis-aligned memory read: Address: 0x080006BE, NumBytes: 2, Alignment: 2 (Halfword-aligned)
  ***** Mis-aligned memory read: Address: 0x080006BE, NumBytes: 2, Alignment: 2 (Halfword-aligned) -- CPU_ReadMem(64 bytes @ 0x08000680) -- Updating DA cache (64 bytes @ 0x08000680) -- Read from DA cache (2 bytes @ 0x080006BE) -- Data:  4F F4  returns 0x02 (0002ms, 5204ms total)
T0808 2089:941 JLINK_ReadMemEx(0x080006C0, 0x0002 Bytes, ..., AccessWidth = 33554432)Mis-aligned memory read: Address: 0x080006C0, NumBytes: 2, Alignment: 2 (Halfword-aligned)
  ***** Mis-aligned memory read: Address: 0x080006C0, NumBytes: 2, Alignment: 2 (Halfword-aligned) -- CPU_ReadMem(64 bytes @ 0x080006C0) -- Updating DA cache (64 bytes @ 0x080006C0) -- Read from DA cache (2 bytes @ 0x080006C0) -- Data:  80 60  returns 0x02 (0001ms, 5205ms total)
T0808 2089:942 JLINK_ReadMemEx(0x080006C2, 0x0002 Bytes, ..., AccessWidth = 33554432)Mis-aligned memory read: Address: 0x080006C2, NumBytes: 2, Alignment: 2 (Halfword-aligned)
  ***** Mis-aligned memory read: Address: 0x080006C2, NumBytes: 2, Alignment: 2 (Halfword-aligned) -- Read from DA cache (2 bytes @ 0x080006C2) -- Data:  0E F0  returns 0x02 (0000ms, 5205ms total)
T0808 2089:942 JLINK_ReadMemEx(0x080006C4, 0x0002 Bytes, ..., AccessWidth = 33554432)Mis-aligned memory read: Address: 0x080006C4, NumBytes: 2, Alignment: 2 (Halfword-aligned)
  ***** Mis-aligned memory read: Address: 0x080006C4, NumBytes: 2, Alignment: 2 (Halfword-aligned) -- Read from DA cache (2 bytes @ 0x080006C4) -- Data:  CF FD  returns 0x02 (0000ms, 5205ms total)
T11D4 2090:138 JLINK_ReadMemEx(0x080006BE, 0x0002 Bytes, ..., AccessWidth = 33554432)Mis-aligned memory read: Address: 0x080006BE, NumBytes: 2, Alignment: 2 (Halfword-aligned)
  ***** Mis-aligned memory read: Address: 0x080006BE, NumBytes: 2, Alignment: 2 (Halfword-aligned) -- Read from DA cache (2 bytes @ 0x080006BE) -- Data:  4F F4  returns 0x02 (0001ms, 5206ms total)
T11D4 2090:139 JLINK_Step() -- Read from DA cache (2 bytes @ 0x080006BE) -- Not simulated  returns 0x00 (0003ms, 5209ms total)
T11D4 2090:142 JLINK_ReadReg(R15 (PC))  returns 0x080006C2 (0000ms, 5209ms total)
T11D4 2090:142 JLINK_ReadReg(XPSR)  returns 0x61000000 (0000ms, 5209ms total)
T11D4 2090:142 JLINK_ReadMemEx(0x080006C0, 0x0002 Bytes, ..., AccessWidth = 33554432)Mis-aligned memory read: Address: 0x080006C0, NumBytes: 2, Alignment: 2 (Halfword-aligned)
  ***** Mis-aligned memory read: Address: 0x080006C0, NumBytes: 2, Alignment: 2 (Halfword-aligned) -- CPU_ReadMem(64 bytes @ 0x080006C0) -- Updating DA cache (64 bytes @ 0x080006C0) -- Read from DA cache (2 bytes @ 0x080006C0) -- Data:  80 60  returns 0x02 (0001ms, 5210ms total)
T11D4 2090:143 JLINK_ReadMemEx(0x080006C2, 0x0002 Bytes, ..., AccessWidth = 33554432)Mis-aligned memory read: Address: 0x080006C2, NumBytes: 2, Alignment: 2 (Halfword-aligned)
  ***** Mis-aligned memory read: Address: 0x080006C2, NumBytes: 2, Alignment: 2 (Halfword-aligned) -- Read from DA cache (2 bytes @ 0x080006C2) -- Data:  0E F0  returns 0x02 (0001ms, 5211ms total)
T11D4 2090:144 JLINK_Step() -- Read from DA cache (2 bytes @ 0x080006C2) -- CPU_ReadMem(4 bytes @ 0xE0001004) -- Not simulated  returns 0x00 (0004ms, 5215ms total)
T11D4 2090:148 JLINK_ReadReg(R15 (PC))  returns 0x0800F264 (0000ms, 5215ms total)
T11D4 2090:148 JLINK_ReadReg(XPSR)  returns 0x61000000 (0000ms, 5215ms total)
T11D4 2090:148 JLINK_ReadReg(R0)  returns 0x00000400 (0000ms, 5215ms total)
T11D4 2090:148 JLINK_ReadReg(R1)  returns 0x200037F8 (0000ms, 5215ms total)
T11D4 2090:148 JLINK_ReadReg(R2)  returns 0x00000000 (0000ms, 5215ms total)
T11D4 2090:148 JLINK_ReadReg(R3)  returns 0x08019F0F (0000ms, 5215ms total)
T11D4 2090:148 JLINK_ReadReg(R4)  returns 0x0801A6A0 (0000ms, 5215ms total)
T11D4 2090:148 JLINK_ReadReg(R5)  returns 0x0801A6A0 (0000ms, 5215ms total)
T11D4 2090:148 JLINK_ReadReg(R6)  returns 0x00000000 (0000ms, 5215ms total)
T11D4 2090:148 JLINK_ReadReg(R7)  returns 0x00000000 (0000ms, 5215ms total)
T11D4 2090:148 JLINK_ReadReg(R8)  returns 0x00000000 (0000ms, 5215ms total)
T11D4 2090:148 JLINK_ReadReg(R9)  returns 0x00000000 (0000ms, 5215ms total)
T11D4 2090:148 JLINK_ReadReg(R10)  returns 0x00000000 (0000ms, 5215ms total)
T11D4 2090:148 JLINK_ReadReg(R11)  returns 0x00000000 (0000ms, 5215ms total)
T11D4 2090:148 JLINK_ReadReg(R12)  returns 0x00000000 (0000ms, 5215ms total)
T11D4 2090:148 JLINK_ReadReg(R13 (SP))  returns 0x200037F0 (0000ms, 5215ms total)
T11D4 2090:148 JLINK_ReadReg(R14)  returns 0x080006C7 (0000ms, 5215ms total)
T11D4 2090:148 JLINK_ReadReg(R15 (PC))  returns 0x0800F264 (0000ms, 5215ms total)
T11D4 2090:148 JLINK_ReadReg(XPSR)  returns 0x61000000 (0000ms, 5215ms total)
T11D4 2090:148 JLINK_ReadReg(MSP)  returns 0x200037F0 (0000ms, 5215ms total)
T11D4 2090:148 JLINK_ReadReg(PSP)  returns 0x00000000 (0000ms, 5215ms total)
T11D4 2090:148 JLINK_ReadReg(CFBP)  returns 0x00000000 (0000ms, 5215ms total)
T11D4 2090:148 JLINK_ReadReg(FPSCR)  returns 0x00000000 (0005ms, 5220ms total)
T11D4 2090:153 JLINK_ReadReg(FPS0)  returns 0x00000000 (0000ms, 5220ms total)
T11D4 2090:153 JLINK_ReadReg(FPS1)  returns 0x00000000 (0000ms, 5220ms total)
T11D4 2090:153 JLINK_ReadReg(FPS2)  returns 0x00000000 (0000ms, 5220ms total)
T11D4 2090:153 JLINK_ReadReg(FPS3)  returns 0x00000000 (0000ms, 5220ms total)
T11D4 2090:153 JLINK_ReadReg(FPS4)  returns 0x00000000 (0000ms, 5220ms total)
T11D4 2090:153 JLINK_ReadReg(FPS5)  returns 0x00000000 (0000ms, 5220ms total)
T11D4 2090:153 JLINK_ReadReg(FPS6)  returns 0x00000000 (0000ms, 5220ms total)
T11D4 2090:153 JLINK_ReadReg(FPS7)  returns 0x00000000 (0000ms, 5220ms total)
T11D4 2090:153 JLINK_ReadReg(FPS8)  returns 0x00000000 (0000ms, 5220ms total)
T11D4 2090:153 JLINK_ReadReg(FPS9)  returns 0x00000000 (0000ms, 5220ms total)
T11D4 2090:153 JLINK_ReadReg(FPS10)  returns 0x00000000 (0000ms, 5220ms total)
T11D4 2090:153 JLINK_ReadReg(FPS11)  returns 0x00000000 (0000ms, 5220ms total)
T11D4 2090:153 JLINK_ReadReg(FPS12)  returns 0x00000000 (0000ms, 5220ms total)
T11D4 2090:153 JLINK_ReadReg(FPS13)  returns 0x00000000 (0000ms, 5220ms total)
T11D4 2090:153 JLINK_ReadReg(FPS14)  returns 0x00000000 (0000ms, 5220ms total)
T11D4 2090:153 JLINK_ReadReg(FPS15)  returns 0x00000000 (0000ms, 5220ms total)
T11D4 2090:153 JLINK_ReadReg(FPS16)  returns 0x00000000 (0000ms, 5220ms total)
T11D4 2090:153 JLINK_ReadReg(FPS17)  returns 0x00000000 (0000ms, 5220ms total)
T11D4 2090:153 JLINK_ReadReg(FPS18)  returns 0x00000000 (0000ms, 5220ms total)
T11D4 2090:153 JLINK_ReadReg(FPS19)  returns 0x00000000 (0000ms, 5220ms total)
T11D4 2090:153 JLINK_ReadReg(FPS20)  returns 0x00000000 (0000ms, 5220ms total)
T11D4 2090:153 JLINK_ReadReg(FPS21)  returns 0x00000000 (0000ms, 5220ms total)
T11D4 2090:153 JLINK_ReadReg(FPS22)  returns 0x00000000 (0000ms, 5220ms total)
T11D4 2090:154 JLINK_ReadReg(FPS23)  returns 0x00000000 (0000ms, 5221ms total)
T11D4 2090:154 JLINK_ReadReg(FPS24)  returns 0x00000000 (0000ms, 5221ms total)
T11D4 2090:154 JLINK_ReadReg(FPS25)  returns 0x00000000 (0000ms, 5221ms total)
T11D4 2090:154 JLINK_ReadReg(FPS26)  returns 0x00000000 (0000ms, 5221ms total)
T11D4 2090:154 JLINK_ReadReg(FPS27)  returns 0x00000000 (0000ms, 5221ms total)
T11D4 2090:154 JLINK_ReadReg(FPS28)  returns 0x00000000 (0000ms, 5221ms total)
T11D4 2090:154 JLINK_ReadReg(FPS29)  returns 0x00000000 (0000ms, 5221ms total)
T11D4 2090:154 JLINK_ReadReg(FPS30)  returns 0x00000000 (0000ms, 5221ms total)
T11D4 2090:154 JLINK_ReadReg(FPS31)  returns 0x00000000 (0000ms, 5221ms total)
T0808 2090:155 JLINK_ReadMemEx(0x200037F4, 0x0004 Bytes, ..., AccessWidth = 33554432)Mis-aligned memory read: Address: 0x200037F4, NumBytes: 4, Alignment: 2 (Halfword-aligned)
  ***** Mis-aligned memory read: Address: 0x200037F4, NumBytes: 4, Alignment: 2 (Halfword-aligned) -- CPU_ReadMem(4 bytes @ 0x200037F4) -- Data:  A5 04 00 08  returns 0x04 (0000ms, 5221ms total)
T0808 2090:155 JLINK_ReadMemEx(0x200037F0, 0x0004 Bytes, ..., AccessWidth = 33554432)Mis-aligned memory read: Address: 0x200037F0, NumBytes: 4, Alignment: 2 (Halfword-aligned)
  ***** Mis-aligned memory read: Address: 0x200037F0, NumBytes: 4, Alignment: 2 (Halfword-aligned) -- CPU_ReadMem(4 bytes @ 0x200037F0) -- Data:  A0 A6 01 08  returns 0x04 (0001ms, 5222ms total)
T0808 2090:158 JLINK_ReadMemU32(0xE0001004, 0x0001 Items, ...) -- CPU_ReadMem(4 bytes @ 0xE0001004) -- Data:  8D 7C 00 00  returns 0x01 (0001ms, 5223ms total)
T0808 2090:162 JLINK_ReadMemEx(0x0800F264, 0x0002 Bytes, ..., AccessWidth = 33554432)Mis-aligned memory read: Address: 0x0800F264, NumBytes: 2, Alignment: 2 (Halfword-aligned)
  ***** Mis-aligned memory read: Address: 0x0800F264, NumBytes: 2, Alignment: 2 (Halfword-aligned) -- CPU_ReadMem(64 bytes @ 0x0800F240) -- Updating DA cache (64 bytes @ 0x0800F240) -- Read from DA cache (2 bytes @ 0x0800F264) -- Data:  10 B5  returns 0x02 (0001ms, 5224ms total)
T0808 2090:163 JLINK_ReadMemEx(0x0800F266, 0x0002 Bytes, ..., AccessWidth = 33554432)Mis-aligned memory read: Address: 0x0800F266, NumBytes: 2, Alignment: 2 (Halfword-aligned)
  ***** Mis-aligned memory read: Address: 0x0800F266, NumBytes: 2, Alignment: 2 (Halfword-aligned) -- Read from DA cache (2 bytes @ 0x0800F266) -- Data:  04 46  returns 0x02 (0000ms, 5224ms total)
T0808 2090:163 JLINK_ReadMemEx(0x0800F266, 0x0002 Bytes, ..., AccessWidth = 33554432)Mis-aligned memory read: Address: 0x0800F266, NumBytes: 2, Alignment: 2 (Halfword-aligned)
  ***** Mis-aligned memory read: Address: 0x0800F266, NumBytes: 2, Alignment: 2 (Halfword-aligned) -- Read from DA cache (2 bytes @ 0x0800F266) -- Data:  04 46  returns 0x02 (0000ms, 5224ms total)
T0808 2090:163 JLINK_ReadMemEx(0x0800F268, 0x0002 Bytes, ..., AccessWidth = 33554432)Mis-aligned memory read: Address: 0x0800F268, NumBytes: 2, Alignment: 2 (Halfword-aligned)
  ***** Mis-aligned memory read: Address: 0x0800F268, NumBytes: 2, Alignment: 2 (Halfword-aligned) -- Read from DA cache (2 bytes @ 0x0800F268) -- Data:  B4 F5  returns 0x02 (0000ms, 5224ms total)
T11D4 2091:940 JLINK_ReadMemEx(0x0800F264, 0x0002 Bytes, ..., AccessWidth = 33554432)Mis-aligned memory read: Address: 0x0800F264, NumBytes: 2, Alignment: 2 (Halfword-aligned)
  ***** Mis-aligned memory read: Address: 0x0800F264, NumBytes: 2, Alignment: 2 (Halfword-aligned) -- Read from DA cache (2 bytes @ 0x0800F264) -- Data:  10 B5  returns 0x02 (0001ms, 5225ms total)
T11D4 2091:941 JLINK_Step() -- Read from DA cache (2 bytes @ 0x0800F264) -- Not simulated  returns 0x00 (0004ms, 5229ms total)
T11D4 2091:945 JLINK_ReadReg(R15 (PC))  returns 0x0800F266 (0000ms, 5229ms total)
T11D4 2091:945 JLINK_ReadReg(XPSR)  returns 0x61000000 (0000ms, 5229ms total)
T11D4 2091:945 JLINK_Step() -- CPU_ReadMem(64 bytes @ 0x0800F240) -- Updating DA cache (64 bytes @ 0x0800F240) -- Read from DA cache (2 bytes @ 0x0800F266) -- CPU_ReadMem(4 bytes @ 0xE0001004) -- Simulated  returns 0x00 (0001ms, 5230ms total)
